!CSV A.01.01
!Keysight Technologies,N5247A,US51370532,A.10.64.03
!Date: Wednesday, August 22, 2018 19:02:52
!Source: Standard

BEGIN CH1_DATA
Freq(Hz),NF(DB),NF(DEG),S21(DB),S21(DEG),S11(DB),S11(DEG),T-Eff(DB),T-Eff(DEG)
1000000000,10.905562,0,-0.13865961,176.17091,0.15556812,-3.1226299,3282.3523,0
1100000000,10.587351,0,-0.21212873,175.43358,0.07579349,-3.9775522,3029.9619,0
1200000000,10.466696,0,-0.20965965,175.11957,0.089042179,-4.4153829,2938.9968,0
1300000000,10.489666,0,-0.15148915,174.99049,0.17342952,-4.4113464,2956.1204,0
1400000000,10.191156,0,-0.14520492,174.62498,0.19806455,-4.5694547,2740.4951,0
1500000000,10.626142,0,-0.15875351,174.1678,0.18389191,-5.0026989,3059.7478,0
1600000000,10.312626,0,-0.13049123,173.77919,0.21635734,-5.4113541,2826.4531,0
1700000000,10.810982,0,-0.12517795,173.31088,0.23628768,-5.8189673,3205.394,0
1800000000,10.441775,0,-0.17734118,172.73944,0.19368275,-6.3671136,2920.5208,0
1900000000,10.239491,0,-0.19470385,172.35196,0.17922658,-6.8155046,2774.4116,0
2000000000,10.759328,0,-0.1554099,172.09114,0.23038106,-7.0314751,3164.0676,0
2100000000,10.203948,0,-0.15360561,171.60426,0.23813275,-7.3860421,2749.4343,0
2200000000,10.10419,0,-0.2079221,170.99786,0.17819293,-8.035409,2680.4138,0
2300000000,10.535956,0,-0.21854328,170.60054,0.16249888,-8.559783,2990.9048,0
2400000000,10.320328,0,-0.18628046,170.34865,0.21157612,-8.7996674,2831.9849,0
2500000000,9.5723877,0,-0.18420561,169.94322,0.23700835,-9.0775661,2338.0688,0
2600000000,10.510297,0,-0.19580033,169.52795,0.2329881,-9.4672918,2971.5776,0
2700000000,10.082215,0,-0.16401733,169.18422,0.26905909,-9.8427153,2665.4221,0
2800000000,9.2432747,0,-0.14058775,168.73694,0.31274024,-10.212995,2146.27,0
2900000000,10.235186,0,-0.17905055,168.21561,0.28031707,-10.661875,2771.3755,0
3000000000,9.724123,0,-0.23485968,167.75296,0.21271951,-11.18368,2431.5125,0
3100000000,9.3643599,0,-0.24991079,167.3989,0.19492722,-11.614546,2215.1514,0
3200000000,10.070039,0,-0.24616046,167.0009,0.20782927,-11.973042,2657.1475,0
3300000000,8.6348333,0,-0.27865225,166.5267,0.19358136,-12.420046,1827.7825,0
3400000000,9.603919,0,-0.2928004,166.13487,0.18027833,-12.873917,2357.2195,0
3500000000,9.8575058,0,-0.27907422,165.79478,0.20028967,-13.258774,2516.3936,0
3600000000,8.4425755,0,-0.28854424,165.40553,0.21316616,-13.612518,1736.0752,0
3700000000,9.656002,0,-0.31474739,165.00595,0.1995935,-13.989398,2389.157,0
3800000000,9.9319782,0,-0.30740306,164.64906,0.20284167,-14.419187,2564.9321,0
3900000000,8.222476,0,-0.28714094,164.24864,0.24440433,-14.854477,1635.9525,0
4000000000,10.173527,0,-0.28544867,163.80179,0.26592755,-15.224043,2728.2185,0
4100000000,9.2433233,0,-0.31403244,163.38194,0.23815899,-15.642898,2146.2976,0
4200000000,10.641047,0,-0.31752247,163.04532,0.22650227,-15.990854,3071.2646,0
4300000000,9.4865313,0,-0.33132553,162.69073,0.21963896,-16.373249,2286.6245,0
4400000000,10.131269,0,-0.33866072,162.30377,0.22626702,-16.749777,2698.9929,0
4500000000,8.6803026,0,-0.34365031,161.8488,0.22753404,-17.248377,1850.0712,0
4600000000,11.681409,0,-0.3276619,161.50081,0.24292129,-17.612991,3981.0916,0
4700000000,7.309701,0,-0.32480749,161.0677,0.27228633,-18.061209,1270.8749,0
4800000000,10.481934,0,-0.33271298,160.69437,0.28164476,-18.351994,2950.3459,0
4900000000,9.9491282,0,-0.33552986,160.30771,0.27247876,-18.724094,2576.2285,0
5000000000,8.4392118,0,-0.34587058,159.89336,0.26334798,-19.202057,1734.5065,0
5100000000,10.638218,0,-0.35611901,159.43124,0.27194932,-19.647655,3069.0754,0
5200000000,9.8410616,0,-0.3670027,158.95393,0.27367535,-20.08316,2505.7874,0
5300000000,8.3231125,0,-0.38201052,158.59196,0.2551097,-20.472996,1681.1024,0
5400000000,10.670957,0,-0.3910805,158.3002,0.24720253,-20.773596,3094.4932,0
5500000000,8.9643888,0,-0.40642247,157.8683,0.25745162,-21.160603,1994.7405,0
5600000000,9.0126467,0,-0.42438075,157.45482,0.24432021,-21.546215,2020.2697,0
5700000000,10.396518,0,-0.43936378,157.13747,0.20782536,-21.939758,2887.2383,0
5800000000,8.7125387,0,-0.48184955,156.71832,0.20114337,-22.480833,1866.0153,0
5900000000,10.48062,0,-0.51596969,156.31783,0.21738836,-22.695669,2949.3665,0
6000000000,9.419795,0,-0.46093461,155.97745,0.22500816,-23.061838,2247.3333,0
6100000000,10.254027,0,-0.46783677,155.4099,0.22715068,-24.141964,2784.6855,0
6200000000,9.2668743,0,-0.510077,154.9944,0.20039804,-24.286758,2159.5452,0
6300000000,8.9497595,0,-0.51633477,154.70377,0.20160177,-24.412586,1987.0575,0
6400000000,10.749017,0,-0.52474141,154.42557,0.17476609,-24.717363,3155.8762,0
6500000000,7.2726803,0,-0.55623442,154.02226,0.16110638,-25.221848,1257.626,0
6600000000,10.449343,0,-0.55428386,153.65938,0.17464465,-25.557226,2926.1201,0
6700000000,8.551754,0,-0.55796301,153.23163,0.18492201,-25.967747,1787.655,0
6800000000,8.6604795,0,-0.57586104,152.85657,0.16551271,-26.376785,1840.3254,0
6900000000,10.079433,0,-0.58760774,152.54355,0.15586555,-26.743689,2663.5298,0
7000000000,8.2659464,0,-0.60112435,152.0239,0.17409976,-27.250727,1655.3271,0
7100000000,9.1515656,0,-0.60233849,151.62216,0.17553067,-27.579168,2095.363,0
7200000000,9.848958,0,-0.62518442,151.35558,0.13447599,-27.898193,2510.8755,0
7300000000,7.256052,0,-0.66144115,150.94373,0.12078947,-28.407904,1251.7118,0
7400000000,9.6716261,0,-0.64972693,150.5033,0.15200108,-28.785017,2398.813,0
7500000000,9.5961161,0,-0.64206982,150.13376,0.16164526,-29.172367,2352.467,0
7600000000,8.5025959,0,-0.66950256,149.73628,0.14392261,-29.618572,1764.2701,0
7700000000,9.6818104,0,-0.67919493,149.3289,0.14704229,-30.006069,2405.126,0
7800000000,9.0539589,0,-0.68605763,148.92197,0.15207669,-30.362875,2042.3508,0
7900000000,8.8883266,0,-0.70507836,148.57826,0.13895102,-30.737234,1955.074,0
8000000000,9.1992407,0,-0.72026348,148.30235,0.12077137,-31.044922,2121.6931,0
8100000000,7.4222784,0,-0.73172098,147.77795,0.13839258,-31.596182,1311.8649,0
8200000000,10.001424,0,-0.72197342,147.33484,0.15798584,-31.959316,2610.9512,0
8300000000,9.2846775,0,-0.7442171,147.06242,0.12146153,-32.227757,2169.6074,0
8400000000,7.6783605,0,-0.79099184,146.72733,0.085663214,-32.668285,1409.1592,0
8500000000,10.281683,0,-0.7839027,146.35385,0.10690455,-32.974712,2804.3276,0
8600000000,8.0158615,0,-0.79836065,145.97733,0.091696791,-33.329281,1546.4712,0
8700000000,7.3988776,0,-0.82142383,145.61909,0.077406213,-33.813042,1303.2566,0
8800000000,8.4089985,0,-0.83298606,145.18513,0.085883275,-34.23872,1720.4713,0
8900000000,8.5483913,0,-0.84657127,144.73521,0.093403943,-34.616417,1786.0466,0
9000000000,7.276113,0,-0.8623836,144.44754,0.073975369,-34.904903,1258.8497,0
9100000000,8.7823706,0,-0.88638145,144.2066,0.039994795,-35.164383,1900.9633,0
9200000000,7.7274313,0,-0.9099797,143.75107,0.040986888,-35.621639,1428.4667,0
9300000000,8.6755333,0,-0.89561141,143.30525,0.06124825,-36.028721,1847.7224,0
9400000000,6.8524685,0,-0.92274308,142.97009,0.036458477,-36.466625,1114.8981,0
9500000000,10.581593,0,-1.013658,142.65001,-0.12502298,-36.986996,3025.563,0
9600000000,8.6288586,0,-0.96812612,142.27124,0.01445954,-37.124996,1824.871,0
9700000000,9.6244001,0,-0.9765206,141.96797,0.0071329311,-37.407913,2369.7327,0
9800000000,8.350831,0,-1.007257,141.58542,-0.012563169,-37.882557,1693.7236,0
9900000000,9.6528511,0,-1.01536,141.19925,-0.0091287661,-38.288815,2387.2141,0
10000000000,8.4049034,0,-1.0276614,140.63423,0.0077803703,-38.86842,1718.576,0
10100000000,8.9457121,0,-1.0454996,140.19344,-0.021256084,-39.294441,1984.936,0
10200000000,10.398972,0,-1.0467992,140.07425,-0.018824097,-39.342228,2889.0339,0
10300000000,7.9082727,0,-1.0866452,139.70421,-0.041648909,-39.738419,1501.5348,0
10400000000,10.557254,0,-1.0874069,139.3204,-0.031171573,-40.066715,3007.0337,0
10500000000,9.7857304,0,-1.0841297,138.96786,-0.030185159,-40.516068,2470.3938,0
10600000000,8.2659101,0,-1.1348382,138.53851,-0.059013806,-40.995228,1655.3107,0
10700000000,11.481673,0,-1.1443667,138.15602,-0.063469045,-41.226334,3789.1091,0
10800000000,7.8296561,0,-1.1620319,137.79845,-0.074386403,-41.631947,1469.396,0
10900000000,9.4699917,0,-1.1865765,137.56508,-0.091401048,-41.899551,2276.8301,0
11000000000,11.876312,0,-1.198688,137.35115,-0.10394616,-42.039608,4177.1367,0
11100000000,6.8225465,0,-1.2363719,136.77638,-0.11776669,-42.672501,1105.2521,0
11200000000,10.127069,0,-1.243314,136.34314,-0.10415096,-43.051937,2696.104,0
11300000000,10.840932,0,-1.2493376,136.1689,-0.12569369,-43.162201,3229.5833,0
11400000000,6.3586364,0,-1.2989122,135.80194,-0.15695183,-43.645954,963.8963,0
11500000000,11.718527,0,-1.3002293,135.4147,-0.13760535,-43.990971,4017.752,0
11600000000,9.5885763,0,-1.2990311,135.28468,-0.14646007,-44.089455,2347.884,0
11700000000,8.9408731,0,-1.3164337,134.95482,-0.1101369,-44.677814,1982.403,0
11800000000,11.337885,0,-1.3568954,134.4043,-0.1643867,-44.972755,3656.2671,0
11900000000,7.4562192,0,-1.3927708,134.03088,-0.18836153,-45.405643,1324.4326,0
12000000000,10.087134,0,-1.4105718,133.74519,-0.18073855,-45.684269,2668.7717,0
12100000000,9.8323002,0,-1.4356899,133.84068,-0.25332743,-45.50198,2500.1528,0
12200000000,6.2383499,0,-1.4473019,133.09985,-0.19894286,-46.311195,929.64368,0
12300000000,11.888178,0,-1.4473094,132.72466,-0.18230696,-46.612232,4189.3584,0
12400000000,10.02632,0,-1.4487611,132.44145,-0.20826352,-46.962887,2627.6289,0
12500000000,8.5754261,0,-1.5775769,131.82249,-0.31525454,-48.30365,1799.0106,0
12600000000,11.621572,0,-1.502638,131.70029,-0.19269177,-47.577641,3922.6477,0
12700000000,11.359165,0,-1.4852735,131.53679,-0.20623322,-47.787769,3675.6511,0
12800000000,7.2801242,0,-1.5548,130.9265,-0.23167782,-48.532055,1260.281,0
12900000000,12.889287,0,-1.544584,130.73233,-0.22272655,-48.365162,5350.6187,0
13000000000,8.3674688,0,-1.5883949,130.34987,-0.28340089,-49.027126,1701.3376,0
13100000000,10.153793,0,-1.6604877,130.10229,-0.32319081,-49.099838,2714.5354,0
13200000000,10.834684,0,-1.6071113,129.55531,-0.23090968,-49.806946,3224.5234,0
13300000000,8.9632797,0,-1.6522974,130.63686,-0.32566169,-48.236847,1994.1571,0
13400000000,9.482605,0,-1.6389592,128.62277,-0.23574786,-50.315609,2284.2959,0
13500000000,10.508741,0,-1.75756,128.73976,-0.54484987,-51.216591,2970.4099,0
13600000000,8.83955,0,-2.309058,133.43671,-1.4031579,-47.336651,1930.0002,0
13700000000,11.665576,0,-1.8474796,128.67664,-0.43280187,-49.638123,3965.5493,0
13800000000,8.158617,0,-1.2773207,127.89711,0.010076981,-48.984032,1607.8402,0
13900000000,7.4054775,0,-1.7942501,126.73779,-0.41343606,-51.8582,1305.6798,0
14000000000,10.33174,0,-1.8413835,127.07342,-0.41837499,-52.047428,2840.2,0
14100000000,10.724272,0,-1.806342,127.14263,-0.40982777,-51.986122,3136.2981,0
14200000000,7.2212248,0,-1.8733879,126.71169,-0.42711458,-52.783195,1239.3978,0
14300000000,13.035682,0,-1.8513699,126.91618,-0.41707855,-51.734161,5543.9961,0
14400000000,7.3312683,0,-1.7686912,126.18147,-0.31491441,-52.771408,1278.6455,0
14500000000,11.354609,0,-1.8732091,125.63102,-0.39647162,-54.683334,3671.4932,0
14600000000,11.45117,0,-1.9963256,125.35356,-0.53326279,-54.274235,3760.5591,0
14700000000,6.5905023,0,-1.9535308,125.05029,-0.45910907,-54.372856,1032.6599,0
14800000000,11.891241,0,-1.970776,124.70437,-0.44944653,-54.788361,4192.519,0
14900000000,10.250145,0,-1.9597397,124.48364,-0.41953066,-54.801899,2781.9385,0
15000000000,7.7165456,0,-1.9939464,123.98324,-0.44701144,-55.443817,1424.1648,0
15100000000,13.158339,0,-2.0503216,123.6852,-0.50422341,-55.585697,5711.1133,0
15200000000,9.3516216,0,-2.0600269,123.47659,-0.49506238,-55.809624,2207.8145,0
15300000000,10.090536,0,-2.0914824,122.99883,-0.47904614,-56.223015,2671.0901,0
15400000000,12.591828,0,-2.0230527,123.08362,-0.43551722,-55.648849,4977.2124,0
15500000000,7.4027281,0,-2.0625782,122.30082,-0.44062611,-56.835468,1304.6699,0
15600000000,11.853063,0,-2.1137102,122.02071,-0.46559927,-57.183208,4153.2856,0
15700000000,11.331525,0,-2.1130259,121.80257,-0.49234498,-57.392784,3650.4917,0
15800000000,7.8765349,0,-2.1983285,121.2749,-0.5226351,-58.020012,1488.4904,0
15900000000,11.81584,0,-2.1986337,121.03477,-0.50696033,-57.870213,4115.3657,0
16000000000,10.321032,0,-2.1954186,120.93585,-0.54263604,-58.186634,2832.491,0
16100000000,8.2497482,0,-2.2537003,120.47095,-0.54255545,-58.726555,1648.0851,0
16200000000,11.768237,0,-2.2239892,120.35356,-0.53684253,-58.421806,4067.3423,0
16300000000,10.037866,0,-2.3575654,120.53638,-0.74614668,-59.118328,2635.3955,0
16400000000,9.921813,0,-2.3431299,119.66896,-0.60379511,-59.375496,2558.2581,0
16500000000,12.498584,0,-2.3062298,120.07603,-0.67367733,-58.42432,4865.3286,0
16600000000,6.5808029,0,-2.3626542,119.94169,-0.63214087,-59.34164,1029.7092,0
16700000000,10.942205,0,-2.42781,118.79467,-0.62783962,-61.377071,3312.6204,0
16800000000,10.993286,0,-2.3472543,118.70227,-0.59080011,-60.190926,3355.2437,0
16900000000,7.1505785,0,-2.4427385,118.37166,-0.63791621,-60.746571,1214.7206,0
17000000000,12.03279,0,-2.4439919,118.1021,-0.61820495,-60.488533,4341.0239,0
17100000000,8.9304047,0,-2.4067657,118.40069,-0.68537116,-60.716072,1976.932,0
17200000000,10.819366,0,-2.4792383,117.99232,-0.62922841,-61.782547,3212.1482,0
17300000000,12.747402,0,-2.4757965,117.36366,-0.63597614,-61.276661,5169.3159,0
17400000000,9.0960941,0,-2.4938822,117.24166,-0.69387937,-61.780872,2065.0896,0
17500000000,11.266756,0,-2.5653574,116.74313,-0.68367738,-62.290768,3592.1616,0
17600000000,13.109642,0,-2.5429122,116.81006,-0.74342293,-62.131371,5644.2007,0
17700000000,6.8162451,0,-2.6195915,117.80946,-0.77554727,-61.865654,1103.229,0
17800000000,12.204893,0,-2.6162808,116.01096,-0.6538325,-63.196594,4528.2271,0
17900000000,12.675358,0,-2.4590373,115.98422,-0.60108805,-61.997635,5079.499,0
18000000000,7.6916041,0,-2.6085644,115.50439,-0.72942954,-63.817875,1414.3485,0
END

